#Digilent WaveForms Network Analyzer - Bode
#Device Name: Discovery2
#Serial Number: SN:210321A7F3E5
#Date Time: 2025-07-04 13:36:05.343
#Start: 10 Hz
#Stop: 100000 Hz
#Steps: 81
#Wavegen: Wavegen C1
#Amplification: 1 X
#Settle: 10 ms
#MinPeriods: 32 
#Channel: Channel 1
#Range: 5.55283 V
#Offset: 0.000243159 V
#Relative: no

Frequency (Hz),Channel 1 Magnitude (dB),Channel 1 Magnitude THD+N (dB),Channel 1 Magnitude THD (dB),Channel 1 Phase (deg),Channel 1 Custom One (dB)
10,-2.982155840339341,-16.873349246738723,-22.64424029957929,3.1083446999889084,-2.982155840339341
11.22018454301963,-2.792656842900263,-19.78564627322679,-25.558667383853408,1.8300591433694677,-2.792656842900263
12.589254117941675,-2.6709700399989575,-22.54403561612493,-28.330911104525573,1.060506914789471,-2.6709700399989575
14.12537544622754,-2.5821605213924936,-25.155996506835677,-30.95754391499497,0.655320734104059,-2.5821605213924936
15.848931924611142,-2.5153245818097703,-27.494994168298625,-33.335777827530805,0.4619825862473874,-2.5153245818097703
17.78279410038923,-2.4632149360725855,-29.884851385873322,-35.77094818324895,0.37189686862306814,-2.4632149360725855
19.952623149688787,-2.4185653586244857,-31.94027777483808,-37.90058803235165,0.35284369714366903,-2.4185653586244857
22.3872113856834,-2.3814144823545074,-34.14555394888761,-40.238868153733584,0.3932992486520419,-2.3814144823545074
25.118864315095795,-2.3482780199493054,-35.9716376020623,-42.27523840554951,0.4111863003663814,-2.3482780199493054
28.18382931264455,-2.3192095095425524,-38.06148304479417,-44.77538004043132,0.4675907786225082,-2.3192095095425524
31.622776601683793,-2.2938478379323564,-39.50708239452807,-46.536529489293194,0.505912955053283,-2.2938478379323564
35.481338923357534,-2.267555579217417,-40.82370395521971,-48.680559285000164,0.5609262014291811,-2.267555579217417
39.810717055349734,-2.245907815318516,-41.69071261050006,-50.19151429740971,0.5838611346475489,-2.245907815318516
44.6683592150963,-2.226505414172613,-42.883834279958045,-53.01875821184942,0.6143855870752759,-2.226505414172613
50.11872336272725,-2.206883924582334,-43.0450622034925,-53.89353477288897,0.6188538618411314,-2.206883924582334
56.23413251903491,-2.1906251025315076,-43.44939115257632,-55.19045205340194,0.6335742563050246,-2.1906251025315076
63.0957344480193,-2.1751357469174613,-43.72679945636057,-55.98221025443344,0.6119252507497777,-2.1751357469174613
70.79457843841381,-2.1608074322764277,-43.52904253492226,-57.32681572071228,0.6123978081629105,-2.1608074322764277
79.43282347242813,-2.148653644221939,-43.909709980023436,-58.90169650637663,0.583254305420013,-2.148653644221939
89.12509381337459,-2.1340522131996167,-43.58645561682431,-58.21026865324485,0.5522591027099111,-2.1340522131996167
100,-2.1246037088473915,-43.82304968219033,-60.05878361082427,0.5240850618626922,-2.1246037088473915
112.2018454301963,-2.1150860762607193,-43.78028482973502,-59.381405475522484,0.4837653360019232,-2.1150860762607193
125.89254117941675,-2.1070308173054477,-43.455744903059724,-59.35510074603532,0.4362325845381605,-2.1070308173054477
141.2537544622754,-2.100713456253728,-43.77994451559934,-59.97673139429801,0.3909932794892086,-2.100713456253728
158.48931924611142,-2.091512125667875,-43.36862610402313,-58.728581420473006,0.348463626954981,-2.091512125667875
177.82794100389228,-2.087106156527054,-43.0977688411479,-58.315612561896124,0.2968997876140804,-2.087106156527054
199.5262314968879,-2.0822115776104693,-42.996529086453094,-58.74185162154639,0.23910833268948295,-2.0822115776104693
223.87211385683398,-2.0744473045135905,-42.892200567635925,-58.29580083392364,0.18323206988364404,-2.0744473045135905
251.18864315095794,-2.0705953331168683,-42.91601888577461,-59.32166575989526,0.11891297809607693,-2.0705953331168683
281.8382931264455,-2.067008847306155,-42.55812990810672,-59.13804970313993,0.058008227260188505,-2.067008847306155
316.22776601683796,-2.0634287625182406,-42.82790029498996,-59.412666749817326,-0.015026903282461035,-2.0634287625182406
354.8133892335753,-2.0590198187666577,-42.64867681885069,-57.93905680740335,-0.08394204807837014,-2.0590198187666577
398.1071705534973,-2.055374522172158,-42.133664728953484,-57.84884471956104,-0.16320507142481233,-2.055374522172158
446.683592150963,-2.056376266016032,-41.814614428171964,-58.006992865446634,-0.22944865281857574,-2.056376266016032
501.18723362727246,-2.0522597147258397,-41.871273151651934,-57.52616698342396,-0.3324793644538886,-2.0522597147258397
562.3413251903492,-2.0498294379555757,-41.46985517411564,-58.17701933449834,-0.41982576693297347,-2.0498294379555757
630.957344480193,-2.044341019592538,-41.52430432776991,-58.59838116116301,-0.5327291317696563,-2.044341019592538
707.945784384138,-2.03967270256559,-41.14456749687947,-57.20903727932934,-0.6501400841810039,-2.03967270256559
794.3282347242814,-2.04048390065582,-41.250238016837166,-56.495128712952685,-0.7695302529486128,-2.04048390065582
891.2509381337459,-2.0383086604098564,-41.104181682156955,-58.84684675049141,-0.8964650045346474,-2.0383086604098564
1000,-2.0328910273465204,-40.68548919957497,-57.00352510933236,-1.044965916735407,-2.0328910273465204
1122.018454301963,-2.0353850238871454,-40.53562668870019,-56.50248750959528,-1.2144164676084301,-2.0353850238871454
1258.9254117941675,-2.028774162735327,-40.586836902587926,-58.83045729680654,-1.4073862060851212,-2.028774162735327
1412.537544622754,-2.030551205857808,-40.14234151616251,-58.15412309472683,-1.6108020737418087,-2.030551205857808
1584.893192461114,-2.028027439354226,-40.18763485482869,-59.13620349407607,-1.8395653938058842,-2.028027439354226
1778.2794100389228,-2.0223712398406573,-39.526993154761634,-59.16826691839005,-2.078748801803698,-2.0223712398406573
1995.2623149688789,-2.025647651749533,-39.937258788652755,-59.340694978316876,-2.3732436467844753,-2.025647651749533
2238.72113856834,-2.0313420339995854,-39.6266884122488,-57.72442502144685,-2.686280070650213,-2.0313420339995854
2511.8864315095793,-2.033559203392827,-39.50901054940294,-55.58057175187058,-3.018304204435964,-2.033559203392827
2818.382931264455,-2.0252648620617646,-39.47186540908203,-59.21356846274287,-3.4264581296920653,-2.0252648620617646
3162.277660168379,-2.0262473297936183,-38.78508350415784,-57.96790641374932,-3.868784361619646,-2.0262473297936183
3548.133892335753,-2.026509495072304,-39.08444354728428,-57.28959093314445,-4.334396365295319,-2.026509495072304
3981.0717055349733,-2.038082147865095,-38.87854112506654,-60.25122128019389,-4.879677610215623,-2.038082147865095
4466.83592150963,-2.037060368013824,-38.866320310543244,-58.890574820353734,-5.4982222426495895,-2.037060368013824
5011.872336272725,-2.0440057998391223,-38.46062584616745,-56.707946126113825,-6.165377525092879,-2.0440057998391223
5623.413251903491,-2.052276769974672,-38.45062489815206,-59.090774376863536,-6.9319223381755535,-2.052276769974672
6309.57344480193,-2.0660761941876786,-38.67889806374737,-60.33665902716705,-7.776618187580297,-2.0660761941876786
7079.45784384138,-2.084653833090578,-38.18991198004221,-56.83418188563075,-8.69217222404967,-2.084653833090578
7943.282347242814,-2.1102275535457475,-38.37049931939153,-57.35113964258873,-9.764097535262827,-2.1102275535457475
8912.509381337459,-2.118598306167085,-38.71315797581083,-57.624379235342154,-10.914248574363597,-2.118598306167085
10000,-2.150800206676461,-38.3662609744603,-57.45445107126582,-12.179678092368981,-2.150800206676461
11220.18454301963,-2.189455398564725,-38.028348352730475,-56.967073553383194,-13.619328290698334,-2.189455398564725
12589.254117941675,-2.2378215121589617,-38.112600057535325,-60.949737509955156,-15.179867272526181,-2.2378215121589617
14125.37544622754,-2.302577678799442,-37.358581160386535,-56.7278764772695,-16.948362606903743,-2.302577678799442
15848.931924611143,-2.388641402424833,-37.12999326720211,-55.142420486943074,-18.89334883918457,-2.388641402424833
17782.79410038923,-2.473679751973486,-36.82548746109458,-57.129447474355885,-20.95717585759914,-2.473679751973486
19952.62314968879,-2.597395434191445,-37.03640913438167,-55.06095784227491,-23.3016736556484,-2.597395434191445
22387.2113856834,-2.750488618443044,-36.57778559094016,-54.17906210620569,-25.863172925693362,-2.750488618443044
25118.864315095794,-2.9233133320598914,-36.4655832473286,-57.12947304959278,-28.574828377323797,-2.9233133320598914
28183.82931264455,-3.1410755062197633,-35.984330135593396,-51.92811166726584,-31.501815353816,-3.1410755062197633
31622.776601683796,-3.4019051774834965,-35.8907003264998,-53.19272944213147,-34.603276018995814,-3.4019051774834965
35481.33892335753,-3.698030740417532,-35.612848421768966,-55.202994902134,-37.888692214986186,-3.698030740417532
39810.717055349734,-4.0705553295380765,-34.433613902926446,-52.211717783966414,-41.262126159465836,-4.0705553295380765
44668.3592150963,-4.460351666958868,-34.11500704006945,-54.202259346164766,-44.71903615416798,-4.460351666958868
50118.72336272724,-4.913267764127668,-33.636209370412274,-51.94604896452499,-48.29731312757532,-4.913267764127668
56234.13251903491,-5.4002139748973,-33.47177706873844,-54.27524202239097,-51.87146789825859,-5.4002139748973
63095.734448019306,-5.979492871060616,-32.87254576444671,-53.23089698091022,-55.43323177162263,-5.979492871060616
70794.5784384138,-6.618941083474123,-31.13198098930621,-50.34578386801026,-58.91932739784363,-6.618941083474123
79432.82347242814,-7.31842848546391,-30.605095224515377,-51.36200109773383,-62.506441978209104,-7.31842848546391
89125.0938133746,-8.056274120116026,-29.56206718235396,-48.36821656382352,-65.79909247163101,-8.056274120116026
100000,-8.765155310656416,-28.15917460893612,-49.613487286867574,-69.10154511073333,-8.765155310656416
