#Digilent WaveForms Network Analyzer - Bode
#Device Name: Discovery2
#Serial Number: SN:210321A7F3E5
#Date Time: 2025-07-04 14:57:12.238
#Start: 10 Hz
#Stop: 100000 Hz
#Steps: 81
#Wavegen: Wavegen C1
#Amplification: 1 X
#Settle: 10 ms
#MinPeriods: 32 
#Channel: Channel 1
#Range: 61.0158 V
#Offset: -0.00262571 V
#Relative: no

Frequency (Hz),Channel 1 Magnitude (dB),Channel 1 Magnitude THD+N (dB),Channel 1 Magnitude THD (dB),Channel 1 Phase (deg),Channel 1 Custom One (dB)
10,-30.536038417146933,11.508434835111581,3.942759852980963,68.02969545473528,-30.536038417146933
11.22018454301963,-29.548823749597297,11.249935403294476,3.823188648732025,68.375567842701,-29.548823749597297
12.589254117941675,-28.55344058548862,10.970816672472758,3.685962244568168,68.4827745441906,-28.55344058548862
14.12537544622754,-27.556505463313783,10.683817413132633,3.519647890059095,68.35823813086826,-27.556505463313783
15.848931924611142,-26.56384545276014,10.381518491925485,3.3471994379004135,68.08718766922051,-26.56384545276014
17.78279410038923,-25.57552602652413,10.10184553799855,3.1637900796896465,67.66173276889667,-25.57552602652413
19.952623149688787,-24.58965174346809,9.82018499868165,2.958051194951643,67.1549624327184,-24.58965174346809
22.3872113856834,-23.59685671311949,9.492883663129048,2.7322042974254117,66.44723271800518,-23.59685671311949
25.118864315095795,-22.606614343000047,9.14108155647558,2.479860799274984,65.63925354205357,-22.606614343000047
28.18382931264455,-21.623988668392467,8.810153910798865,2.2160229397586657,64.63155376817755,-21.623988668392467
31.622776601683793,-20.63594482542754,8.470119992848533,1.9283639259720842,63.54991224419388,-20.63594482542754
35.481338923357534,-19.655878868747944,8.124671677863185,1.6273004127115274,62.28697556112872,-19.655878868747944
39.810717055349734,-18.677008969577393,7.762289623900429,1.300622033364274,60.892106727542846,-18.677008969577393
44.6683592150963,-17.699801722668848,7.379798524713203,0.9587813946141666,59.34767360090561,-17.699801722668848
50.11872336272725,-16.724096282651576,6.986878918108737,0.5973674940568435,57.619676556238176,-16.724096282651576
56.23413251903491,-15.75367825102452,6.5700534165151865,0.21995322875030424,55.74191195950982,-15.75367825102452
63.0957344480193,-14.787906098043385,6.1468496055081125,-0.17163714051507944,53.70386939608149,-14.787906098043385
70.79457843841381,-13.827019794148326,5.696863066548846,-0.5800719161597456,51.50000708256418,-13.827019794148326
79.43282347242813,-12.870379163337581,5.224239574087707,-1.009708360793401,49.13919560932013,-12.870379163337581
89.12509381337459,-11.920427476508229,4.724399906232011,-1.4654035312208233,46.58318814790395,-11.920427476508229
100,-10.980104597820727,4.191637815263037,-1.9533996565427065,43.856455133002655,-10.980104597820727
112.2018454301963,-10.047297418715516,3.61607932961923,-2.4909151287343136,40.9379935505429,-10.047297418715516
125.89254117941675,-9.12714196979713,2.989371130001486,-3.085239536069864,37.84491074105989,-9.12714196979713
141.2537544622754,-8.218487062617852,2.2997662236227336,-3.752229761804255,34.55820209750459,-8.218487062617852
158.48931924611142,-7.3255352871702435,1.525606817493494,-4.5061374622597965,31.076563180930833,-7.3255352871702435
177.82794100389228,-6.452476687599952,0.638423316174941,-5.369783471775303,27.407385098729037,-6.452476687599952
199.5262314968879,-5.605377319830135,-0.40828469792079164,-6.385133028934291,23.541755279262944,-5.605377319830135
223.87211385683398,-4.792981179653408,-1.698870678007055,-7.646584489074007,19.453178818388594,-4.792981179653408
251.18864315095794,-4.027402386783514,-3.3894480940639617,-9.331713875941597,15.123573953349265,-4.027402386783514
281.8382931264455,-3.3336288569078514,-5.867446433691011,-11.816474045930567,10.476014621372428,-3.3336288569078514
316.22776601683796,-2.7584189020869667,-10.538748990341453,-16.46183814502517,5.4132196624355515,-2.7584189020869667
354.8133892335753,-2.474927106974512,-31.160293948062296,-37.05389433624433,0.6897872422880198,-2.474927106974512
398.1071705534973,-2.466278533748904,-41.07027161563365,-47.1226520621844,0.24855756132814122,-2.466278533748904
446.683592150963,-2.4609673465006217,-45.488342682004614,-52.197888348907014,0.12702359792276496,-2.4609673465006217
501.18723362727246,-2.4543031919642573,-45.34648578883409,-52.09751413528571,0.09737747982095613,-2.4543031919642573
562.3413251903492,-2.4500197689700305,-47.39761138781871,-55.003153482530024,0.04684898642656776,-2.4500197689700305
630.957344480193,-2.4440798661529786,-48.49428769050883,-56.846682005858284,0.02017124434832951,-2.4440798661529786
707.945784384138,-2.4405917288440966,-48.005366181479594,-56.2722738293331,0.009840492849242821,-2.4405917288440966
794.3282347242814,-2.4363824723655143,-49.282141575317155,-59.03942437003856,-0.03275054404035416,-2.4363824723655143
891.2509381337459,-2.4323619065544637,-49.384561653304864,-59.96287411785939,-0.05362089117187452,-2.4323619065544637
1000,-2.427963310312205,-49.44279400756389,-60.32514497625334,-0.07552875941466652,-2.427963310312205
1122.018454301963,-2.422991618874234,-49.16191791992229,-60.438161992114836,-0.09788772267705781,-2.422991618874234
1258.9254117941675,-2.4160585482860766,-49.221074428067865,-61.42866808119618,-0.1281076126386438,-2.4160585482860766
1412.537544622754,-2.4119272941710825,-49.140980681326965,-62.487122768831156,-0.14744785239123104,-2.4119272941710825
1584.893192461114,-2.4054379383797166,-49.17161609421566,-63.24033390315161,-0.1931342794419706,-2.4054379383797166
1778.2794100389228,-2.398116772223976,-49.05608802102812,-63.808365549931246,-0.23018521896020872,-2.398116772223976
1995.2623149688789,-2.38926993469055,-48.776763243675134,-64.55894113783346,-0.27686198019014796,-2.38926993469055
2238.72113856834,-2.378346584923614,-48.9535141479963,-66.10436599130222,-0.32699611973902165,-2.378346584923614
2511.8864315095793,-2.3662826697634776,-48.737808423610005,-66.25481142601228,-0.37325206259687427,-2.3662826697634776
2818.382931264455,-2.3551298539523784,-48.46757135103796,-65.86075421498747,-0.43017559572817277,-2.3551298539523784
3162.277660168379,-2.3399581464036983,-48.48875572141712,-66.21491877241276,-0.49816951876444193,-2.3399581464036983
3548.133892335753,-2.3251981302214517,-47.92504507369905,-66.3136672841508,-0.5648252152529949,-2.3251981302214517
3981.0717055349733,-2.3108083757523397,-48.03778307994637,-67.52545020909047,-0.6328962300220837,-2.3108083757523397
4466.83592150963,-2.2943560898305013,-48.08693143056087,-66.9360346888553,-0.7145884227707455,-2.2943560898305013
5011.872336272725,-2.2816107675833766,-47.77387477579195,-65.3102614971792,-0.8072751312967625,-2.2816107675833766
5623.413251903491,-2.2682067222403237,-47.648208411863365,-70.52840611643711,-0.8978052926895828,-2.2682067222403237
6309.57344480193,-2.259587897417268,-47.512608236853424,-66.94995611627928,-0.9998153787097408,-2.259587897417268
7079.45784384138,-2.2654852808205206,-47.59543493779748,-67.69931141307646,-1.1027568104464365,-2.2654852808205206
7943.282347242814,-2.2616567077095544,-47.541616588325084,-65.82318274291397,-1.225259601929153,-2.2616567077095544
8912.509381337459,-2.2503717274739365,-47.38056512169048,-64.95409652153933,-1.3581868766977383,-2.2503717274739365
10000,-2.2538605434436403,-47.29808623798285,-66.95232814039817,-1.4995317584235153,-2.2538605434436403
11220.18454301963,-2.258754655376722,-47.08876520610757,-64.23309542093014,-1.668043202135375,-2.258754655376722
12589.254117941675,-2.2687777652408365,-46.78143029888366,-68.75765021466196,-1.8464397216194186,-2.2687777652408365
14125.37544622754,-2.2814256451301733,-46.641359321683844,-66.07284257552959,-2.0436472011825515,-2.2814256451301733
15848.931924611143,-2.293612926956513,-46.527221733746266,-66.27747961237597,-2.271219760087689,-2.293612926956513
17782.79410038923,-2.2914204455784475,-46.843951241114674,-63.94876379120184,-2.5306304060421922,-2.2914204455784475
19952.62314968879,-2.297657141989732,-46.73703218380887,-64.85229364120616,-2.8183627119458947,-2.297657141989732
22387.2113856834,-2.3031523861719796,-46.436359476203286,-63.821344419146236,-3.1453504091793647,-2.3031523861719796
25118.864315095794,-2.310842997822348,-45.827188345231356,-64.61791348933508,-3.4995918594059177,-2.310842997822348
28183.82931264455,-2.31282430904988,-46.161009404088354,-64.0425090786672,-3.9649571704605364,-2.31282430904988
31622.776601683796,-2.318854777756602,-46.07499030369073,-61.145041740922956,-4.423368334399171,-2.318854777756602
35481.33892335753,-2.3197762959897252,-45.75003675592442,-61.33871255360491,-4.951177992985976,-2.3197762959897252
39810.717055349734,-2.3257764748597434,-45.69026755388589,-65.71273319975927,-5.538343051621993,-2.3257764748597434
44668.3592150963,-2.3214124314477154,-45.47171320579312,-63.38339532166037,-6.209549975941016,-2.3214124314477154
50118.72336272724,-2.3202806422798665,-45.51690768159472,-64.34232174743465,-6.947975880784185,-2.3202806422798665
56234.13251903491,-2.3227219168864734,-44.90034031272274,-62.55197520688825,-7.808503873976527,-2.3227219168864734
63095.734448019306,-2.3236770600862795,-44.723745072165784,-64.2795602702846,-8.765309962473935,-2.3236770600862795
70794.5784384138,-2.32097086040963,-44.53281934667983,-63.792582649777685,-9.856213005538564,-2.32097086040963
79432.82347242814,-2.3361916821924638,-43.98687224524021,-62.02469855824668,-11.020432941661596,-2.3361916821924638
89125.0938133746,-2.3509655126027225,-43.285454887591506,-64.37465008528358,-12.388802920588276,-2.3509655126027225
100000,-2.3411517076765835,-42.89673433798416,-64.73270681069336,-13.862071536393898,-2.3411517076765835
