#Digilent WaveForms Network Analyzer - Bode
#Device Name: Discovery2
#Serial Number: SN:210321A7F3E5
#Date Time: 2025-07-04 14:38:52.920
#Start: 10 Hz
#Stop: 100000 Hz
#Steps: 81
#Wavegen: Wavegen C1
#Amplification: 1 X
#Settle: 10 ms
#MinPeriods: 32 
#Channel: Channel 1
#Range: 5.55283 V
#Offset: 0.000243159 V
#Relative: no

Frequency (Hz),Channel 1 Magnitude (dB),Channel 1 Magnitude THD+N (dB),Channel 1 Magnitude THD (dB),Channel 1 Phase (deg),Channel 1 Custom One (dB)
10,-11.148594890299485,-13.938337544494306,-19.70235871078419,219.53185223442446,-11.148594890299485
11.22018454301963,-10.439487170531045,-14.554033736543623,-20.32801870775276,218.36501090982352,-10.439487170531045
12.589254117941675,-9.775279466751886,-15.27629682052166,-21.04590552105707,217.0708515655705,-9.775279466751886
14.12537544622754,-9.148194216217524,-16.106894291650676,-21.876199966773243,215.6927754239478,-9.148194216217524
15.848931924611142,-8.557123922784433,-16.959121148912807,-22.730580250921847,214.21875941026,-8.557123922784433
17.78279410038923,-8.010975164490667,-17.845815768015193,-23.62130705801553,212.7139788382497,-8.010975164490667
19.952623149688787,-7.499415725297371,-18.802336720820225,-24.573587060890297,211.16053003959667,-7.499415725297371
22.3872113856834,-7.027941442100954,-19.81589732263946,-25.582940504179895,209.61768515944212,-7.027941442100954
25.118864315095795,-6.592533726607331,-20.859244577572294,-26.63279772719967,208.0960785056584,-6.592533726607331
28.18382931264455,-6.196214557921546,-21.874235300450383,-27.645466573601652,206.61509610322975,-6.196214557921546
31.622776601683793,-5.831364178976921,-22.969129821446494,-28.748400331940136,205.11488945576193,-5.831364178976921
35.481338923357534,-5.499162534597394,-24.09765536050211,-29.872163020935837,203.6890108157282,-5.499162534597394
39.810717055349734,-5.194057207588036,-25.177114801907447,-30.961263890945368,202.29210695674834,-5.194057207588036
44.6683592150963,-4.918011519286143,-26.381938456434973,-32.16343637721439,200.97706407031595,-4.918011519286143
50.11872336272725,-4.664653496058765,-27.51043127695159,-33.283873884849896,199.70472666518313,-4.664653496058765
56.23413251903491,-4.436902879130295,-28.696977134645945,-34.481581068670486,198.4870816918413,-4.436902879130295
63.0957344480193,-4.229860888972508,-29.834540367467774,-35.62081854698127,197.32098827963557,-4.229860888972508
70.79457843841381,-4.043495987390882,-30.917030524389162,-36.71430041639073,196.19546266637212,-4.043495987390882
79.43282347242813,-3.8738307294447134,-32.0047095694191,-37.81096821578358,195.1066583677121,-3.8738307294447134
89.12509381337459,-3.7205027356644833,-33.15501758337006,-38.97741728312586,194.06209758512566,-3.7205027356644833
100,-3.5843932156729172,-34.2458115554719,-40.09750882817527,193.06989607409423,-3.5843932156729172
112.2018454301963,-3.461109064712271,-35.151470227590394,-41.0151376665818,192.12628482385355,-3.461109064712271
125.89254117941675,-3.3506095840480645,-36.29017671167353,-42.166038483208325,191.2297174778646,-3.3506095840480645
141.2537544622754,-3.2553123348352675,-37.1905705421401,-43.08321465569869,190.37052214350246,-3.2553123348352675
158.48931924611142,-3.171117895945046,-38.16633866080517,-44.08781821234061,189.55195840112367,-3.171117895945046
177.82794100389228,-3.0946276489309628,-38.854060049484815,-44.82234566959848,188.79344893244584,-3.0946276489309628
199.5262314968879,-3.0278999317959636,-39.623276633706205,-45.63513855690212,188.0723636804426,-3.0278999317959636
223.87211385683398,-2.969319641069721,-40.40766882617327,-46.50253332080371,187.39393461820055,-2.969319641069721
251.18864315095794,-2.9182564072308486,-41.19936686368093,-47.39600569398814,186.7480800065623,-2.9182564072308486
281.8382931264455,-2.8735273568915423,-41.68805294040334,-47.90381136496222,186.14968148611297,-2.8735273568915423
316.22776601683796,-2.8330782693836634,-42.43267242624566,-48.73477983880975,185.58271565944872,-2.8330782693836634
354.8133892335753,-2.7980553245166324,-43.074550363305626,-49.53615589783258,185.04852806399654,-2.7980553245166324
398.1071705534973,-2.7663456180265733,-43.771760392971885,-50.417450401001446,184.5448643428321,-2.7663456180265733
446.683592150963,-2.7407621929528876,-44.259913642977764,-51.109680519786586,184.08148111488265,-2.7407621929528876
501.18723362727246,-2.7152456747865887,-45.06105340089931,-52.01300725469955,183.62497025676572,-2.7152456747865887
562.3413251903492,-2.6941763773168854,-45.6600420540116,-53.02664134052719,183.19964589593872,-2.6941763773168854
630.957344480193,-2.6748672831381355,-46.290920037538314,-54.038842604050465,182.79342228859358,-2.6748672831381355
707.945784384138,-2.6575274225154417,-46.519323052120185,-54.52217446196229,182.41451894117446,-2.6575274225154417
794.3282347242814,-2.6422576651035823,-46.98405824199604,-55.59306123551664,182.0222018873448,-2.6422576651035823
891.2509381337459,-2.627212174779813,-47.518565825470844,-56.71904508666106,181.65751598670983,-2.627212174779813
1000,-2.6159715075711487,-47.8018381770811,-57.49467591556942,181.29348301365098,-2.6159715075711487
1122.018454301963,-2.6037178144917448,-47.99694329928177,-58.17226500552313,180.94053515683288,-2.6037178144917448
1258.9254117941675,-2.5934444159068843,-48.34626370292513,-60.50298095634611,180.57469779571232,-2.5934444159068843
1412.537544622754,-2.583201744949709,-47.76660523168357,-59.8446007901888,180.21722965369676,-2.583201744949709
1584.893192461114,-2.5740388362005113,-48.099244070507936,-61.16929833471132,179.84490575515213,-2.5740388362005113
1778.2794100389228,-2.56709996972847,-47.93365535774033,-61.30179613973195,179.46690690410804,-2.56709996972847
1995.2623149688789,-2.5601073399612932,-48.195945869752805,-63.879050860435306,179.05972516673634,-2.5601073399612932
2238.72113856834,-2.5559461871388915,-48.03497814776136,-64.53165355316835,178.6334833474301,-2.5559461871388915
2511.8864315095793,-2.548877597497147,-48.000824335118246,-64.67799543683076,178.18304809989849,-2.548877597497147
2818.382931264455,-2.5451776871724814,-47.808307722357036,-68.01634821486263,177.7066128435765,-2.5451776871724814
3162.277660168379,-2.542143388776996,-47.774368794567785,-67.44801881950941,177.20406403420344,-2.542143388776996
3548.133892335753,-2.5391668119773527,-47.390404586773144,-68.66341641915027,176.6542602528359,-2.5391668119773527
3981.0717055349733,-2.538097791506032,-47.40362121643582,-67.62307300251604,176.05540543036687,-2.538097791506032
4466.83592150963,-2.537127450996666,-47.481238767353,-69.30142802591875,175.40297222990813,-2.537127450996666
5011.872336272725,-2.5407694148125746,-47.13352793273845,-70.01570025379249,174.68861815041302,-2.5407694148125746
5623.413251903491,-2.541497451995946,-47.38286189435212,-71.321544918956,173.9058483096174,-2.541497451995946
6309.57344480193,-2.546737906401131,-46.71754844167505,-69.14660011908997,173.0447743765234,-2.546737906401131
7079.45784384138,-2.56837069342867,-47.068655911078196,-68.04948567358808,172.10948306133477,-2.56837069342867
7943.282347242814,-2.57575333185893,-46.380116627878316,-67.95558367172643,171.05928314450261,-2.57575333185893
8912.509381337459,-2.5791859176867495,-46.538222174710725,-68.29276619071624,169.90060563152386,-2.5791859176867495
10000,-2.6007269530383126,-45.880641297263836,-65.19271213274202,168.63228511853993,-2.6007269530383126
11220.18454301963,-2.6266659133640573,-46.006324275982564,-67.73263146494499,167.22316932520283,-2.6266659133640573
12589.254117941675,-2.656137944197703,-45.67947703197508,-66.47314695621526,165.6641109813683,-2.656137944197703
14125.37544622754,-2.70114695602134,-46.09111059176385,-66.55135756974325,163.94170602689135,-2.70114695602134
15848.931924611143,-2.7546789326094783,-46.3367452114142,-65.0685735048003,162.0721867576951,-2.7546789326094783
17782.79410038923,-2.802021038415095,-45.50077660725738,-64.35759426093463,159.9713608532349,-2.802021038415095
19952.62314968879,-2.872521716994896,-45.50016392507124,-65.85872202878372,157.6937050361803,-2.872521716994896
22387.2113856834,-2.9573714247876453,-45.673078929219216,-69.66110899664415,155.1874843616393,-2.9573714247876453
25118.864315095794,-3.0562518873884397,-44.872899211369926,-62.094454281275404,152.44947042761126,-3.0562518873884397
28183.82931264455,-3.171333104726811,-45.10991895735012,-65.0088858927846,149.4953373422409,-3.171333104726811
31622.776601683796,-3.3118190701319357,-44.40006901857389,-63.7101180409278,146.27242137546025,-3.3118190701319357
35481.33892335753,-3.468477525879514,-44.28048486484042,-62.254930302369054,142.8038482499505,-3.468477525879514
39810.717055349734,-3.65205836201695,-44.069342185283176,-64.54850402155432,139.07058125726036,-3.65205836201695
44668.3592150963,-3.8483449590296512,-43.16917399663996,-61.34565408214173,135.077835429718,-3.8483449590296512
50118.72336272724,-4.076536056126595,-42.699627356381086,-62.07412960849241,130.84297101715944,-4.076536056126595
56234.13251903491,-4.3225994019641325,-42.359303921226406,-66.01833606407047,126.3821713473468,-4.3225994019641325
63095.734448019306,-4.5914380390165,-42.305164089905524,-65.88439771065634,121.60525253839995,-4.5914380390165
70794.5784384138,-4.87819044155431,-41.60879304513698,-60.25829110735081,116.63483253757045,-4.87819044155431
79432.82347242814,-5.181978687414441,-41.135020910622906,-65.42305085047467,111.4390707745323,-5.181978687414441
89125.0938133746,-5.492645298325629,-40.859451414874385,-61.73682049526448,106.02136521732733,-5.492645298325629
100000,-5.782060117182612,-40.14354676894448,-64.01119357833208,100.39181102130287,-5.782060117182612
