#Digilent WaveForms Network Analyzer - Bode
#Device Name: Discovery2
#Serial Number: SN:210321A7F3E5
#Date Time: 2025-07-04 14:39:24.887
#Start: 10 Hz
#Stop: 100000 Hz
#Steps: 81
#Wavegen: Wavegen C1
#Amplification: 1 X
#Settle: 10 ms
#MinPeriods: 32 
#Channel: Channel 1
#Range: 5.55283 V
#Offset: 0.000243159 V
#Relative: no

Frequency (Hz),Channel 1 Magnitude (dB),Channel 1 Magnitude THD+N (dB),Channel 1 Magnitude THD (dB),Channel 1 Phase (deg),Channel 1 Custom One (dB)
10,-10.767047053439466,-6.83991101975574,-12.603293952476488,221.05988023080548,-10.767047053439466
11.22018454301963,-9.949902283353397,-7.606678117327078,-13.370066172275163,219.25666999117868,-9.949902283353397
12.589254117941675,-9.170772216083598,-8.459862370026912,-14.224079655983049,217.22945840993103,-9.170772216083598
14.12537544622754,-8.435843896742497,-9.414911735423724,-15.177828881932648,215.03138677937426,-8.435843896742497
15.848931924611142,-7.748374033775695,-10.477974100403163,-16.242338235212376,212.70310755272203,-7.748374033775695
17.78279410038923,-7.115829499218336,-11.645639786819089,-17.4085783600963,210.31642613838204,-7.115829499218336
19.952623149688787,-6.543117219847766,-12.914185335977717,-18.67799465771718,207.92652867955232,-6.543117219847766
22.3872113856834,-6.034301700910656,-14.253133475918618,-20.017146158990755,205.6007239536747,-6.034301700910656
25.118864315095795,-5.589153668187253,-15.662888423623091,-21.425536964811634,203.3788618978312,-5.589153668187253
28.18382931264455,-5.2044088938305775,-17.094171591797945,-22.857332115365715,201.31978524668997,-5.2044088938305775
31.622776601683793,-4.8755789511058145,-18.554652551368587,-24.319703606325575,199.43616000238748,-4.8755789511058145
35.481338923357534,-4.595715310183815,-19.98271882481007,-25.747108137198857,197.74133478774655,-4.595715310183815
39.810717055349734,-4.358124659186696,-21.41745718806323,-27.1817973605486,196.19312549917723,-4.358124659186696
44.6683592150963,-4.154196841192977,-22.814396986738615,-28.580266963145075,194.8379709246311,-4.154196841192977
50.11872336272725,-3.979747119164636,-24.23000128273808,-29.994468576995104,193.62012374389172,-3.979747119164636
56.23413251903491,-3.827980409757376,-25.584272767838204,-31.35094548703654,192.54583747415313,-3.827980409757376
63.0957344480193,-3.695973774235992,-26.895666281038846,-32.65665620232835,191.5736530464403,-3.695973774235992
70.79457843841381,-3.5803524208021065,-28.261699144251224,-34.027707680860445,190.7056023772654,-3.5803524208021065
79.43282347242813,-3.4774341799002935,-29.602959672556647,-35.36979918080308,189.9298627346747,-3.4774341799002935
89.12509381337459,-3.384701501151964,-31.01258582201758,-36.78134272398124,189.2129760665093,-3.384701501151964
100,-3.300237898755434,-32.3268732163461,-38.09236194376731,188.56490690420637,-3.300237898755434
112.2018454301963,-3.225039482906319,-33.69984290385497,-39.47706787475647,187.9656968648723,-3.225039482906319
125.89254117941675,-3.1566770724093334,-35.097923897692745,-40.864142882014974,187.40973005760617,-3.1566770724093334
141.2537544622754,-3.093689665780353,-36.52234812343152,-42.29106940695693,186.89243084278962,-3.093689665780353
158.48931924611142,-3.0353746481556367,-37.858436458548894,-43.63723978537216,186.4104543577182,-3.0353746481556367
177.82794100389228,-2.982232963624904,-39.22967885214198,-45.00180627836534,185.95640264430284,-2.982232963624904
199.5262314968879,-2.934569741834949,-40.531260345014,-46.331765301371355,185.52149043956098,-2.934569741834949
223.87211385683398,-2.889970111722345,-41.78481540635054,-47.59968355282776,185.10787412191198,-2.889970111722345
251.18864315095794,-2.849420755230383,-43.07529399868375,-48.891608876839584,184.71232282213893,-2.849420755230383
281.8382931264455,-2.813005211339164,-44.346437821773534,-50.16825199350261,184.3261086764665,-2.813005211339164
316.22776601683796,-2.779600376240534,-45.406101378245076,-51.25691544742423,183.9583235476174,-2.779600376240534
354.8133892335753,-2.750531967239665,-46.30876758579669,-52.2300560389282,183.5988257009687,-2.750531967239665
398.1071705534973,-2.72437371186397,-47.3830505157388,-53.30772157238351,183.24993717368778,-2.72437371186397
446.683592150963,-2.701198122178965,-48.178393684701405,-54.15345283220974,182.91010300829885,-2.701198122178965
501.18723362727246,-2.6804834693272723,-49.031889686019106,-55.060706501665386,182.5794501449546,-2.6804834693272723
562.3413251903492,-2.6611402416858,-49.81345250593215,-55.914205558194176,182.2614046638305,-2.6611402416858
630.957344480193,-2.6444018951265056,-50.58933268345366,-56.72812827646161,181.94834286589497,-2.6444018951265056
707.945784384138,-2.629727661111666,-51.04374677434065,-57.24555281794596,181.63912239551146,-2.629727661111666
794.3282347242814,-2.6162614591186424,-51.591835432656254,-57.9512038705392,181.3341826207742,-2.6162614591186424
891.2509381337459,-2.6044128014597483,-52.24389677388851,-58.73296047384517,181.02756223482828,-2.6044128014597483
1000,-2.5939334488213484,-52.531115826031474,-59.22894532877845,180.72379913393334,-2.5939334488213484
1122.018454301963,-2.583872188771622,-53.446250373222995,-60.307111368393215,180.41364863128575,-2.583872188771622
1258.9254117941675,-2.5752383135104013,-53.76366113935014,-60.67968477559941,180.09526095744346,-2.5752383135104013
1412.537544622754,-2.5676703701529098,-54.039902905286475,-61.45112110154416,179.7703444528745,-2.5676703701529098
1584.893192461114,-2.5615579417879837,-54.697882159788136,-62.18605869525098,179.43443670115082,-2.5615579417879837
1778.2794100389228,-2.5545626058057564,-54.742240202641526,-62.418078228587326,179.08413082548225,-2.5545626058057564
1995.2623149688789,-2.550006485618041,-55.65999324586761,-63.9749761612815,178.70809786017966,-2.550006485618041
2238.72113856834,-2.5448688333100504,-55.59879884140845,-63.90440918240438,178.3160716523783,-2.5448688333100504
2511.8864315095793,-2.54129730624096,-55.625359020504476,-64.3051461289234,177.89398529184254,-2.54129730624096
2818.382931264455,-2.5378346298437267,-56.039733711978585,-65.53097779192564,177.43960536477243,-2.5378346298437267
3162.277660168379,-2.5354879854935493,-55.55634242227405,-64.95417565619087,176.94746844139019,-2.5354879854935493
3548.133892335753,-2.5333942097141944,-55.989070999592265,-66.12389107690026,176.41277951053945,-2.5333942097141944
3981.0717055349733,-2.533701891593854,-55.70433356425746,-65.84707065744959,175.83076333839006,-2.533701891593854
4466.83592150963,-2.533918966227,-55.650181363651825,-65.84472465102886,175.19115373566146,-2.533918966227
5011.872336272725,-2.5363758460226253,-56.12426414349959,-66.93370851679218,174.48597012412742,-2.5363758460226253
5623.413251903491,-2.539648803679872,-56.38626008916419,-67.81056330970524,173.7174097207245,-2.539648803679872
6309.57344480193,-2.5460279807034834,-56.09285016581458,-68.02543003091279,172.86971612921656,-2.5460279807034834
7079.45784384138,-2.565904615649402,-56.16551534955257,-67.82548312543287,171.9297405610974,-2.565904615649402
7943.282347242814,-2.577073172507198,-55.99504628618917,-69.97468355003298,170.88994326290285,-2.577073172507198
8912.509381337459,-2.580546842669765,-55.90274529835333,-68.12312865037926,169.74885012415908,-2.580546842669765
10000,-2.600083335269791,-56.130089458710614,-68.79984033687519,168.48026165973715,-2.600083335269791
11220.18454301963,-2.62566627287639,-55.88984435286781,-68.8272271866921,167.0759116115912,-2.62566627287639
12589.254117941675,-2.657765976507817,-55.60462638124903,-69.69497333806287,165.52520930135444,-2.657765976507817
14125.37544622754,-2.7022414543987012,-55.89716367348598,-69.38193628617171,163.81673924577674,-2.7022414543987012
15848.931924611143,-2.7561099323143163,-55.57049934659283,-69.27668972598495,161.92836890758068,-2.7561099323143163
17782.79410038923,-2.805464490918124,-55.7798756723614,-70.31170262613884,159.85126939074567,-2.805464490918124
19952.62314968879,-2.8754854262219616,-55.10606660262651,-68.17791300351777,157.57276266703107,-2.8754854262219616
22387.2113856834,-2.959934256273735,-55.37262029198303,-70.27993292083865,155.0737718747169,-2.959934256273735
25118.864315095794,-3.0605939865784935,-54.81097436727873,-69.85136623449762,152.34973930245567,-3.0605939865784935
28183.82931264455,-3.1777077901811706,-54.933789731839376,-68.66057979700382,149.38452731018995,-3.1777077901811706
31622.776601683796,-3.31706829008199,-54.739357449128654,-72.10592231298483,146.1631751820263,-3.31706829008199
35481.33892335753,-3.476026041904438,-54.746107477854416,-70.78786185603282,142.69932165383977,-3.476026041904438
39810.717055349734,-3.658265769857179,-54.10866714680416,-72.79169502393215,138.97799104629132,-3.658265769857179
44668.3592150963,-3.8570335081229374,-54.20319543581637,-71.06729577366283,134.9893379789329,-3.8570335081229374
50118.72336272724,-4.084638116416545,-53.39753073345197,-71.6803060525059,130.74747723028233,-4.084638116416545
56234.13251903491,-4.333871272986853,-52.85338324046434,-70.72735818044849,126.26888837836468,-4.333871272986853
63095.734448019306,-4.602100048006018,-52.579062862785875,-69.30886460981596,121.52266306905149,-4.602100048006018
70794.5784384138,-4.8875419905257225,-52.018868790872304,-72.04233469384802,116.556609134968,-4.8875419905257225
79432.82347242814,-5.199075533515699,-51.81627015272604,-71.84076533940596,111.36370313532467,-5.199075533515699
89125.0938133746,-5.509498575391194,-51.35187738150236,-70.48389342473502,105.96566444447984,-5.509498575391194
100000,-5.798217556173202,-50.314363522792036,-68.8657869312729,100.34895972760137,-5.798217556173202
